!Created with skrf (http://scikit-rf.org).
# GHz S RI R 50.0 
!freq ReS11 ImS11
75.0 -3.6122768984403733 0.8583342910457414
75.35 3.516347193770909 0.6785901696616943
75.7 -3.4534757869658357 3.4003577620506418
76.05 0.5930019731590255 -1.9384575659150238
76.4 -1.1322474543408818 2.9143395929272815
76.75 -0.8097749053597054 -1.3507050109819216
77.1 -0.22355252472848886 2.9605558778369625
77.45 -0.9440245213492267 1.196645069951959
77.8 -2.5515774889538507 -0.06906657279539985
78.15 2.7328962490493103 2.3276834054440023
78.5 2.748470709612022 -3.738667585946871
78.85 -1.0501667315996803 -1.45345733511396
79.2 -0.966800326064682 -2.666701333226695
79.55 -3.6607848556637155 -1.1331611040685727
79.9 -0.41801272523700916 -1.1089834003178538
80.25 2.517612480530919 -1.6795123036302728
80.6 -1.8914214987676141 2.1312790773517136
80.95 1.201123411689185 -1.3977463773753707
81.3 0.528171402271636 -2.1050408597749355
81.65 0.9287111541077282 0.5042494415275511
82.0 0.8856778378599479 0.21429743148300684
82.35 2.354386543694754 2.013732968899663
82.7 -3.114032451892852 -0.6351459770104624
83.05 -0.5973491333242498 -3.1949124533787607
83.4 3.634575280421715 2.1760117910683414
83.75 -0.13410974140298837 -1.260985017280161
84.1 0.6710053190407459 -3.1125710141290375
84.45 -1.739654692943037 2.0177812052127555
84.8 2.215418742700555 -0.04141299182441749
85.15 -0.37082430980674363 3.212553562266031
85.5 0.6218345062387369 0.1759437750930939
85.85 -1.2525127917625474 0.6132301523566639
86.2 3.456779700152164 -0.3669267607546276
86.55 0.20347464124288628 1.6535793752574381
86.9 -1.9371265840163119 1.360017879204456
87.25 2.6343985703571766 2.6489847167903653
87.6 1.2680750112959096 -2.8497169955295156
87.95 -1.2246211597139194 -1.290373892401032
88.3 -2.1581355230695873 1.5120877167021032
88.65 -0.4823605358525258 3.2338566996134723
89.0 1.962304070343686 2.8282165853199777
89.35 3.420707769280451 -0.5066995525189384
89.7 -0.8951059810109587 -1.7376410672045894
90.05 3.6079032122056454 3.0486325096562403
90.4 3.527143849215732 3.332632794263901
90.75 -3.9813467047978586 -1.664305387004001
91.1 -0.7943495680294026 -2.3634609757505505
91.45 2.6696026134920636 1.220228019580702
91.8 2.493999030860504 3.135013315550607
92.15 -0.34328328691729393 0.8511051925669157
92.5 0.7040627748502795 3.135866608561379
92.85 3.669332405393889 -3.1916953058154496
93.2 -2.9182093188615807 -1.139340950508812
93.55 1.6412047068044409 2.6273684916166813
93.9 -2.732005354513669 -0.39148520261155184
94.25 3.5755261585865314 2.2881417376550424
94.6 2.2937734470616853 -0.5045129269206674
94.95 3.929287521027642 -1.2670325128696636
95.3 3.8312884301336885 1.7240353111827798
95.65 -1.5533583676421312 1.8480022951519741
96.0 0.06547396966067254 3.563042618408744
96.35 -2.1201876963424677 -2.049950986424701
96.7 -2.4695756063037786 -0.730244605515507
97.05 -1.4520747519458999 -1.7387747383048886
97.4 2.692440636228519 -0.5182736542720159
97.75 -3.202647926911035 3.3112353267317536
98.1 2.605032889087262 -1.913451670053302
98.45 -2.4656669360779713 -0.9098168744708524
98.8 0.9806816633523923 -3.1535122831173643
99.15 0.41540851203711604 -1.8881379852359812
99.5 3.7986157269352763 -2.59486198768841
99.85 1.081818425457798 -1.2414960769298435
100.2 -0.5347343543545398 -3.9378038847429417
100.55 -3.2744529699364566 0.933649316446421
100.9 2.7548915566923453 1.2631931173973427
101.25 -1.9813343628201263 -3.8503796289560412
101.6 -0.8858292381482045 -1.2487850208885547
101.95 3.728805784947964 0.32421306568172614
102.3 -3.9269195966685233 -0.26132651812871543
102.65 0.6039365520226667 -2.6750892270293933
103.0 3.0598364652241354 0.6880413914409234
103.35 -3.858334442136293 0.7853357053579177
103.7 -2.3696425592640127 3.6884802630393203
104.05 -2.9747976272571792 2.363448903105076
104.4 -2.511854323750086 -3.2069098548472192
104.75 -2.8934110359793355 1.6839382062234085
105.1 -2.638763460933811 -0.35348457262681965
105.45 1.2552828061413246 3.8436694141034753
105.8 -3.1440333494474384 0.461775627268028
106.15 2.9133730484896843 -1.6573594274181414
106.5 -2.6289623998969844 -2.4925750755232032
106.85 -1.813584653977684 -0.9001189171700119
107.2 -2.525614029248513 -1.3695862746114154
107.55 -2.332741981340381 0.2724163767456522
107.9 -2.3055301144769977 -2.2740820645522524
108.25 -1.7989029423506633 1.6693244602284576
108.6 3.7318336598875756 -2.56565762096651
108.95 3.052092233662691 -3.559863563816309
109.3 -2.7617917692087772 3.300515843414362
109.65 -2.5242402926149694 3.1690684524457087
110.0 2.445995560834726 -1.155968584161708
