!Created with skrf (http://scikit-rf.org).
# GHz S RI R 50.0 
!freq ReS11 ImS11
75.0 2.0916663591782214 -1.3665960841922147
75.35 -2.1736395839599547 -1.5272405276497105
75.7 -0.36464367317408564 0.2889802032254458
76.05 -1.2538103416713497 -0.39131620103873876
76.4 -0.8379328167191171 2.151834599630103
76.75 -1.169747024766003 2.294365644334528
77.1 -2.372857798153329 1.9904839252692748
77.45 0.7649089928849531 0.10980073429403148
77.8 -1.738460591975141 -2.2666721522893285
78.15 2.0284461778445713 1.0328328568683336
78.5 0.008164976527615497 2.437167042654198
78.85 -2.4212483040420922 -0.964211100734103
79.2 -2.6255441987822508 1.6622428603978283
79.55 -2.5740744659939447 2.623890222774971
79.9 -0.970832165921035 0.5350137440949985
80.25 2.9172759101393755 2.3618505391704883
80.6 -0.2222496623150818 -2.7792657078308975
80.95 2.805175489296822 2.6821012083384126
81.3 -2.907725271847907 -0.051245722601007015
81.65 2.2106064857569976 1.676984125407462
82.0 2.843180480745242 1.3371490441769203
82.35 2.9522306542828427 -0.619422725391054
82.7 1.3766788095015943 1.6558060788433255
83.05 -2.6887813349527727 1.8112615364423121
83.4 -0.7121123630495036 2.444504236393649
83.75 -1.8573068307100042 -2.442614638847
84.1 -2.7245680041478098 0.28253958964122483
84.45 0.3586353119153616 0.7413545604904426
84.8 -0.9583274262777586 -1.4603792096168493
85.15 1.184890654456112 -2.9322809220061847
85.5 -0.14310718106479237 2.2120819408425674
85.85 2.907454609025442 -0.7729446804535418
86.2 2.707285338787769 -1.2949007041350515
86.55 -2.0999121863965065 -0.8181785200518337
86.9 -2.5815913075374084 -1.503967677733549
87.25 -1.1271983953471212 -2.803219798649847
87.6 2.7295345938809827 -0.47949078289635416
87.95 -1.2466204010177144 2.1741243777078014
88.3 -1.0700158510024234 0.21110784905275914
88.65 2.2687911730263766 0.20153871514669364
89.0 -0.04486215130615001 -1.8643512190455107
89.35 -1.4521677973225346 2.2818158222323106
89.7 0.7976492470770451 0.5184171232724868
90.05 2.51039577526452 -0.16880820283546494
90.4 -2.605417723100601 -2.543878529957511
90.75 -0.08377521441053593 2.186839609922278
91.1 -1.124305479528006 0.657125315377773
91.45 -0.38774324649006364 -0.6746979478119521
91.8 -0.3610852750403206 -1.7490356010182186
92.15 1.8940729774071352 -1.1560577067030333
92.5 -1.8576584043880824 2.8392574459000617
92.85 -2.7905729135539223 2.1292069647982914
93.2 2.0395470769519086 -0.9368005163999342
93.55 -1.695175688100004 1.8243230511814452
93.9 1.8998941575720212 -2.996663343069968
94.25 -1.5589434677857503 -2.7860342823841724
94.6 -1.106307927509924 -1.8536906476908712
94.95 -1.67460379121499 1.5860142857774695
95.3 -1.6245138774478018 0.25750928902775927
95.65 2.840052129298348 -2.3267140676107188
96.0 0.585238549135803 -2.3627097502774665
96.35 0.34263922976068684 -1.2384851513137523
96.7 0.812599083391115 -0.41151517905554047
97.05 0.3258339769889318 -0.12738372051335056
97.4 -1.6929574241766745 0.48393248503766917
97.75 0.7547174911904595 -1.6622990272280058
98.1 -1.357917366613026 -0.1151379015342977
98.45 -2.8440245746025905 2.7106420912551803
98.8 1.1034198380513907 0.05132442242759594
99.15 1.888846422888354 -0.10226617969859264
99.5 2.8472486828983987 0.4688990283250938
99.85 -0.8098939848231241 -1.9947112841253736
100.2 -0.8012312620640498 -2.262483679626007
100.55 0.9148286114173265 -2.9844174536811434
100.9 1.2822279467356137 -1.5076022149381374
101.25 0.602495626317179 0.510031333089586
101.6 2.8772471117433005 2.952391983782724
101.95 0.7139056813265638 -0.4272305979568498
102.3 -0.5839296866001671 1.973329648231144
102.65 -2.427603345070245 -0.4303262398551586
103.0 -2.5008434679741214 2.51501573956912
103.35 0.3031283486121976 -2.230641282468568
103.7 -1.5724862930516177 -1.5388888829371394
104.05 2.312418486765864 2.433629800815378
104.4 -0.6412174660642436 -0.31981860331498657
104.75 -0.19180708248586398 0.5813692024614625
105.1 -0.49721086237263257 -2.0988352475305896
105.45 -2.2325119902204067 1.3615518186694286
105.8 -2.5563711194388596 -2.7359164005269534
106.15 2.03545350190562 -1.1368244500206568
106.5 0.6508819840469882 -1.8185430809477507
106.85 -2.3882862017928406 1.363195617815657
107.2 -2.1592854375284993 -1.7641686570312785
107.55 2.243859570497317 1.2302630274986393
107.9 0.4675856807457468 -0.5087016590536217
108.25 -1.6522231654921644 -2.187318682337547
108.6 -1.652618906140615 0.3109879272866347
108.95 0.4964575369401176 1.5689559273649163
109.3 2.2441966430179106 -2.868780499367923
109.65 -2.2614991123336097 -0.03958094633534959
110.0 -2.4294375451550057 -2.4162033591705927
