!Created with skrf (http://scikit-rf.org).
# GHz S RI R 50.0 
!freq ReS11 ImS11
75.0 5.5225741081351085 -8.690045975980901
75.35 -8.49173268672087 6.007331491189109
75.7 3.3613873027412726 1.3515107068553613
76.05 0.5117415446684803 6.977806383041575
76.4 -2.482332188939411 -3.0041788756837167
76.75 -2.674610744046664 -3.705580268498063
77.1 6.052059057007121 -4.539521824669686
77.45 7.1472922655751505 7.107312430073953
77.8 -7.835130745933937 7.883297068411366
78.15 5.296797556442004 -6.106564820063584
78.5 2.834928069977379 0.8770260804400316
78.85 -8.846543860716366 -7.94798104662345
79.2 7.722334080959279 -8.468256764906588
79.55 -7.635027584280702 1.9803147835229695
79.9 -1.9583886513283997 -7.597206540251882
80.25 8.703477741111016 -4.672237116035428
80.6 5.15436286222676 4.673431372581476
80.95 -7.163327745589278 -6.977817281051709
81.3 3.777551992191701 4.069503292043679
81.65 -5.801073585165289 0.16536121626594413
82.0 -0.26845184514942133 2.324547144615276
82.35 -0.38646343163065344 2.031002640663428
82.7 6.0859472206138125 -7.7901091525962185
83.05 2.4213598609404197 8.72497221982994
83.4 -3.3451274098696517 5.8531495523583565
83.75 -5.799935057994114 -2.834767334932673
84.1 -8.631856987438272 0.2000507641343574
84.45 -7.365998711906095 8.669026320676537
84.8 0.22722524917387532 -5.359720940533652
85.15 -8.602238221545308 1.8511408669861718
85.5 3.183807403703087 -6.700395650983852
85.85 7.916276395431016 -6.2788841345590125
86.2 -7.595332548177067 5.375367296737969
86.55 -2.0056312397749387 -8.21173849558477
86.9 0.6305100777455619 -7.527373218180864
87.25 4.437837102637289 0.20374264162784628
87.6 7.631049911656977 -4.300216449792242
87.95 3.8568223807360313 -5.929417979379387
88.3 4.567386774206433 8.808784482820359
88.65 -4.248778514553791 -3.426900682350916
89.0 3.6193544441372065 -0.5024410510469757
89.35 6.233137793766588 -6.6554378262612115
89.7 1.799279735081278 3.1661426262099264
90.05 5.81373710667791 -5.135864199166283
90.4 5.1729137322278325 5.736044453468378
90.75 2.6801232531925594 8.393730414801048
91.1 1.7822300979136863 -5.613586596116384
91.45 -1.3758551746034005 -5.0259737743675466
91.8 -4.655353980574946 -4.620276686178475
92.15 -7.69540586114927 5.027789611194972
92.5 -4.04252426554679 1.172254184990352
92.85 -6.2268221077919765 -1.209864744185287
93.2 7.141943688342859 6.715097867911814
93.55 7.318603689016065 -7.945512954019089
93.9 -8.044857528237797 -5.951020696832222
94.25 -8.803582776166875 -4.662609247444646
94.6 4.520611352912621 -5.3343702007048055
94.95 4.627021563104458 3.221515364295921
95.3 -3.038062149630868 -7.266561212603269
95.65 7.339055550926156 -4.7115020594458965
96.0 2.317561938519212 6.45961128449569
96.35 2.9776994253584848 -0.6477181731298116
96.7 -8.377171852274124 -6.043369866808665
97.05 -3.893336837344835 4.641462099445954
97.4 -4.527063408268487 -0.6841558947914526
97.75 -1.2404991890021224 2.31978927786445
98.1 -7.840769776045718 -4.4132089310111455
98.45 -1.616629179996736 -8.084064390839806
98.8 4.508524143210584 -1.7555576085367788
99.15 -6.351620160422406 4.460761793979458
99.5 -7.263165762518289 5.527109244392221
99.85 8.972103367016128 1.941664611626707
100.2 7.3624882288547875 2.280790380634422
100.55 8.25519874609468 0.727627913102258
100.9 8.026904490702453 -1.3575081996084406
101.25 0.8086724188463792 -0.8864689871998264
101.6 8.992992071747215 -2.105769332008782
101.95 5.39892915404516 -3.1048855774789277
102.3 -6.99643602070506 -4.577969972695986
102.65 1.1912396847498623 3.3993051701360724
103.0 1.1472818213853686 -2.0584810568317566
103.35 1.8542709077401944 -2.6337648378233522
103.7 7.018329565866268 -2.561573180800176
104.05 0.14726770247645216 -0.28940293930933536
104.4 4.658516940483199 6.15777692532529
104.75 -5.161076415497817 7.51387109025816
105.1 4.119935673914244 3.541086771004538
105.45 -6.79927931950874 0.9374213285663091
105.8 -8.396067391650151 -0.5595012495452196
106.15 4.431170449131023 2.655487916307738
106.5 -2.7996358679869697 -6.339141068169807
106.85 6.370875827675846 0.851230346922166
107.2 -4.546424311452087 -7.899623569286025
107.55 7.1008363226391005 0.8107169399557095
107.9 -0.9727105304620678 -0.11391769550900088
108.25 -4.395186346933706 -2.4929532255092663
108.6 5.948326801832815 -7.333081572711528
108.95 -0.7471253285184469 -7.536830217431236
109.3 2.304137161410769 -8.147854900144425
109.65 1.7688402767872704 4.895235169050535
110.0 4.617025211190285 0.7301020083842158
