!Created with skrf (http://scikit-rf.org).
# GHz S RI R 50.0 
!freq ReS11 ImS11
75.0 5.370835023718422 -2.1598211857230254
75.35 2.4575917968156844 4.330598254561297
75.7 5.120168907592605 -0.6721316276927611
76.05 3.218636332239021 -3.770152631912293
76.4 0.5055648001220483 6.674120143901531
76.75 0.0320347536773713 -2.0219409113413853
77.1 5.529471107197051 -2.2955198698711063
77.45 -2.4290618826837034 -5.867047128680968
77.8 -5.071758886047347 -0.9912470916925078
78.15 -4.213577172190737 -1.3992964427426213
78.5 0.6664165709482819 -4.855311096586828
78.85 0.18530035443882853 -4.877501619839222
79.2 2.441536437312471 -1.8203528983963897
79.55 6.894670137929669 5.163826174022908
79.9 -6.9469269177624104 0.10339523932864436
80.25 4.646186197702793 2.995924721064824
80.6 -3.5890643005097096 -0.9037182963608099
80.95 2.2888113885003243 4.724593176993514
81.3 -1.2444548997734675 1.7832034258065677
81.65 3.7873431396835793 -6.895588818355347
82.0 -1.595380577428955 -0.5103490485410145
82.35 4.920403936568736 -6.158338283023035
82.7 -5.571025338480638 -5.338082549566538
83.05 5.8494201327158155 -3.4410494643103684
83.4 5.96035317186422 0.691568410667019
83.75 5.179744704268236 -3.4532627448320268
84.1 -0.5221957313384691 -5.263527223177716
84.45 3.8398974390795226 3.6470331843263595
84.8 3.992796499417338 2.802488247866676
85.15 1.7398087708079555 3.4147814656460875
85.5 -2.2392057797307805 -2.6191103153228825
85.85 -3.987928742127846 3.3012065237109995
86.2 -0.18970462085363682 1.7862751917327029
86.55 -2.2959089645359962 4.7103166976621385
86.9 5.19375613935699 5.831412751418926
87.25 -1.657787644428074 0.8302924479913096
87.6 -1.7388361335805957 -1.4473552427763052
87.95 -4.83926268731604 -6.49430750828823
88.3 4.136710398402617 6.008771768393478
88.65 6.633143084660302 5.707812194355254
89.0 1.249862942498083 2.7766515589870133
89.35 6.167963341139184 4.944608026503556
89.7 -5.72992239312425 2.8779202762926026
90.05 -6.738500369875397 -5.154514576816719
90.4 -4.756669014565632 6.757458077152794
90.75 -3.3985739995444284 1.6215495698144229
91.1 3.6273254074878594 2.8019649796556867
91.45 6.702748509642018 -0.296143841005732
91.8 6.386274895451329 -0.2239878172597487
92.15 3.8044004856192117 2.3623418788672454
92.5 -2.856615368645996 5.023410666062237
92.85 2.550584457875278 -4.993004584403978
93.2 -4.69025136970826 2.429248563164192
93.55 -2.3695664799394685 -5.720527298613078
93.9 2.5806990475040426 6.154891132469629
94.25 -5.222010671638142 6.6470491358579435
94.6 -1.5991444718287724 3.1903548381968267
94.95 -2.828943335319684 -1.9368023939204753
95.3 3.409800846912585 5.318770398309708
95.65 -2.1564349249342 0.12750039618238063
96.0 5.4206160045401095 -3.790776216239597
96.35 -3.7917059613990736 2.4891690063939573
96.7 5.341084558713364 2.194679169999131
97.05 1.804200760023323 6.4520832786661435
97.4 4.046333222826853 1.7531392714230298
97.75 -1.9317302063473067 -1.7949383213010557
98.1 3.6145800368016925 1.6493797908784196
98.45 -4.257080942759857 5.89166112291518
98.8 0.6382586104640444 3.214839890385809
99.15 4.910447865161267 -5.708507835199514
99.5 -0.2547316653904055 -1.395880926518928
99.85 4.548879799898006 -4.950828283063242
100.2 5.59702870875534 5.384964677027847
100.55 -5.147942501472022 2.4377731863128105
100.9 -1.5039229727004548 3.865132114240272
101.25 -1.7026704948586076 -3.7708966904003756
101.6 -6.767446196943144 0.01098097555227473
101.95 4.323772639032418 -3.7178673428962314
102.3 -6.654758843699535 4.14479236946495
102.65 -0.7372404725490906 -4.755007631453623
103.0 3.6088934961456003 1.8630866595353859
103.35 6.402153575533215 6.823255705669936
103.7 1.3047283651632073 -6.697600215570466
104.05 1.1633262474815553 -4.668964365585936
104.4 -0.1782795181090564 -1.0322442773106597
104.75 5.595542284102015 -6.692233185163349
105.1 -3.570456337720758 -6.049338637057467
105.45 -0.8604412255709328 -0.446848438107905
105.8 -0.3410576266835923 5.124026031144284
106.15 -2.9349433886909035 6.958474833474172
106.5 2.4634654351022247 -3.9246938333412187
106.85 1.6854142315772807 -5.943081034717596
107.2 0.5733430850536361 -3.9504991351700394
107.55 3.3389615161321338 -6.359320738411049
107.9 -2.247475748989544 -1.6760260342149458
108.25 5.770283047034823 -0.009105714193599956
108.6 -6.784956056453844 -0.3380561514924516
108.95 -4.398381913218145 4.310384388272842
109.3 1.2588875222861577 2.8843653711640167
109.65 3.421445305236123 -3.3415332656764867
110.0 6.208261598940511 -5.291142366176522
