!Created with skrf (http://scikit-rf.org).
# GHz S RI R 50.0 
!freq ReS11 ImS11
75.0 5.391702230441891 -0.8078665096935955
75.35 4.647022348973744 -2.8463255667218332
75.7 1.9504625838413037 -5.409821384406922
76.05 0.403731185293569 -5.375375301941315
76.4 3.79385782843911 1.2401975864921817
76.75 4.455519508782255 5.932676028251976
77.1 1.8945175859991314 -4.029928642507774
77.45 -0.7082430220773466 -3.612025146663584
77.8 -1.1047700493848835 4.406940004199432
78.15 2.8805962849228433 0.6958813446235976
78.5 4.780244430677856 3.489099160963953
78.85 5.0604966597714345 3.3628322018133
79.2 4.4842765058392775 5.3318620303695
79.55 5.237719440967096 1.0544017251525073
79.9 3.6490133726466025 -5.248825491308214
80.25 5.95533561774785 -5.466724684013651
80.6 0.620796240444526 -5.963043348176438
80.95 3.6449287232955303 2.0624149017298055
81.3 -4.249583710798506 4.979432876271131
81.65 -4.05555572272276 0.24575869910835957
82.0 2.5502826141262736 -5.666917872540894
82.35 0.824478134392677 -0.5285894901550328
82.7 0.6752009434707578 4.621518284132696
83.05 0.7534780783426536 5.103351889160886
83.4 -3.829782839775105 2.1302084821097917
83.75 -0.5776008765793388 -1.7133970991669547
84.1 4.119838625707306 4.5980134507181925
84.45 5.656763572450782 5.903369546122404
84.8 -4.2105404794033925 -1.1482450323546107
85.15 0.993718353819514 3.332204443011742
85.5 3.0541919440562206 0.8354946476960166
85.85 -5.980796446683502 -0.008571356121897633
86.2 2.5228396481108937 -1.912534181511358
86.55 5.327067780819862 0.9387467536673482
86.9 -4.270747448944473 -4.251329318286999
87.25 -2.0816648428383773 -4.231132503105686
87.6 4.76765196751365 -3.5937605319936208
87.95 -4.761424848508355 -3.1492701114574633
88.3 0.574565894378114 -2.062518892787866
88.65 2.2558299109787305 2.6349917309523816
89.0 -2.8050784124297894 -0.29602060483535597
89.35 1.862615310995614 5.268058750958064
89.7 1.9343924803412151 -5.001036637833506
90.05 1.1730444009566154 2.9683904320241705
90.4 -0.8130299221420811 0.48410195303503967
90.75 5.2969509619218496 -5.753344070855324
91.1 -4.816795192140859 2.9365732356272582
91.45 -3.343906949841894 1.9193495451430214
91.8 4.8641144804489125 -4.625558271030819
92.15 -0.6281120403881939 2.056689217039127
92.5 1.2617299836119202 1.5166599153595612
92.85 2.358626992669593 1.5854105842140638
93.2 -5.709158219427822 -4.420025131919459
93.55 1.0530624040893612 -1.5334299156738411
93.9 -5.840478793670144 3.28648605364553
94.25 3.9342781153201054 5.321427282299291
94.6 1.3393473289444806 -5.623409582777592
94.95 4.7242647716984045 -3.1655190853582695
95.3 -0.6810640897945031 5.3178397012048615
95.65 3.1962730258446377 -0.3581711810144226
96.0 4.81824550430505 -5.099840183925285
96.35 3.3492267484597713 -4.9051958902808455
96.7 -1.6189099606543929 5.4891085808710205
97.05 1.16092561990685 0.36694833383868763
97.4 -5.580935900464972 3.423862494313372
97.75 5.073864295359272 3.5293924832672867
98.1 -4.371606877231236 5.837913719436562
98.45 4.568191511022396 3.603758804702608
98.8 -1.6405561493125767 4.520587870665818
99.15 1.259352587255532 5.935482980276113
99.5 -3.1420161585151116 -3.407879029175014
99.85 4.402530024881077 5.828051616600655
100.2 -3.0534418613488454 -5.372753218556073
100.55 -2.121286112994625 2.8689938570278968
100.9 -0.922356196578531 2.0187034946322884
101.25 1.2277181596862108 -4.856029055858276
101.6 5.967359303698457 -2.4792195204640666
101.95 1.7998388983659472 2.3472125499652443
102.3 -5.0699009206684185 1.5049824672893468
102.65 0.6160854763303565 -5.76787569118002
103.0 -2.5492201695827896 -0.33470261864460893
103.35 -0.7928009663551192 -4.554964755703634
103.7 -5.208417271053161 1.392542027264152
104.05 -0.9696889046129926 4.087198704881496
104.4 5.953093238008867 1.1268906134574879
104.75 2.49859399669353 -5.653884348990672
105.1 2.0750571923860437 0.5091115081149908
105.45 0.17933590443786374 5.612201883621193
105.8 4.164130056388595 4.4025868720754655
106.15 -2.812513110579397 -1.6384889674952103
106.5 4.223279178053534 -4.038963627677245
106.85 3.9325914790031478 -0.3980390891967662
107.2 5.093200042859545 5.923264167399693
107.55 5.077074190557495 -2.6025264091121136
107.9 -4.589102609043387 0.27896011117489694
108.25 1.8345299599725027 0.6570204824467689
108.6 -1.0173691807098906 1.0258576653303004
108.95 1.4810867699309238 4.928307188468036
109.3 -4.101818846142796 3.5670138301122596
109.65 -2.991899755140866 -3.430757104325769
110.0 -4.315257978341933 -5.521374054450845
