!Created with skrf (http://scikit-rf.org).
# GHz S RI R 50.0 
!freq ReS11 ImS11
75.0 0.641059733101629 -0.17927673056661342
75.35 -0.6996915265989447 0.3289242223811215
75.7 0.937878970193252 0.06128026068120351
76.05 0.16758135473967695 0.06636153114587207
76.4 -0.5945350790929809 -0.33859212826926943
76.75 0.8715207033170571 -0.5874059877742657
77.1 -0.8768854594861875 0.3806155665554076
77.45 0.5334290897680682 0.8087125771382653
77.8 -0.10763116139085671 0.21803180389618126
78.15 0.6284774470291661 0.6134682390081299
78.5 -0.9529999102921842 -0.42610011078291055
78.85 0.5998738941739918 0.9038705344023426
79.2 -0.7290929975504548 -0.4294938786413258
79.55 -0.03037057011325528 0.8785911249572291
79.9 0.13400670026762906 -0.8985447675632956
80.25 -0.5495824806895553 0.97997936449322
80.6 -0.899745074120597 -0.79642028703233
80.95 -0.6362767405892802 -0.4794705812485205
81.3 0.2086981027242727 0.1563137230998386
81.65 0.7836129861061703 0.12309146807033922
82.0 0.21023811192243103 0.6862273843705704
82.35 -0.08068150811895158 -0.7266226512578486
82.7 -0.12197594843877013 -0.5145688644999253
83.05 -0.45081379385304343 -0.9851855116950188
83.4 -0.10192104936905144 -0.10543827025735375
83.75 -0.3491331984709074 -0.33093140677293187
84.1 0.5077542562684421 -0.1498757984150838
84.45 0.22391960745960282 -0.8954304825981478
84.8 0.413788458510036 -0.7849823405965268
85.15 0.10169215075416305 0.7758126884541101
85.5 -0.5870886409396532 0.4028802854351343
85.85 -0.7121456281081127 -0.5949839638225596
86.2 -0.8586253797089645 0.6458988198338766
86.55 0.47359555180492463 -0.8397347095183911
86.9 -0.48122953602219387 -0.4019222400516096
87.25 -0.1938113734188005 -0.17797462511615714
87.6 -0.34812509192971763 -0.7043582737159921
87.95 -0.5658463632231354 -0.7915493026282872
88.3 0.0001945683177979607 -0.9499799322446787
88.65 0.3470607548933802 -0.8710006112215927
89.0 0.3620388494702296 -0.20325435353739452
89.35 -0.21594379913607287 0.9466882209896288
89.7 -0.20371301444178402 0.2004905367312475
90.05 0.9340166922142068 -0.31796880236926905
90.4 0.8749021519919036 0.8339617369188366
90.75 0.8006368000386066 -0.029054555958995865
91.1 -0.9713496673590971 -0.7975902192557958
91.45 0.32768627099407066 0.16096156581314158
91.8 0.5982049264215727 -0.838444266841756
92.15 -0.3458116732065477 -0.4787871847718912
92.5 -0.8086640834228007 0.5908176842398503
92.85 -0.8255682207107717 0.1598076564617903
93.2 0.9722558885207797 -0.07788955413981058
93.55 0.9318447867065733 -0.7712100577421661
93.9 0.16427906822609173 0.31829305051410395
94.25 -0.29027592831602433 0.8328000077406497
94.6 -0.04871868965403303 0.9642847601828637
94.95 -0.6225649559549578 0.99329412368183
95.3 0.27522833215168485 -0.9994618591594366
95.65 0.07640996629063479 0.21855339019754538
96.0 0.1202463875665929 0.07209275666191872
96.35 0.20116070227066163 -0.2391655140818103
96.7 -0.8996928788196068 0.5317233888683615
97.05 0.984834798609517 -0.797525594005094
97.4 -0.18443672494287866 0.5741499781615109
97.75 0.6091428033419726 0.2956839691298312
98.1 -0.3981140120973443 0.7429628131241921
98.45 0.5146182312126211 -0.47337674654959927
98.8 0.7862167182720778 -0.5944875706371968
99.15 -0.7923019262799045 0.7799189340883368
99.5 0.6062409143788525 -0.01329010805210018
99.85 0.41274015923676965 0.15490312613192403
100.2 -0.6804256654352816 0.8598277434440564
100.55 -0.27886875157126223 -0.3681032407760081
100.9 -0.4687789563122311 0.6462667748306345
101.25 0.6151341622972317 0.4084382872227337
101.6 -0.8201911730472065 -0.4378603733798694
101.95 0.36851871189678587 -0.631289283148059
102.3 -0.018832212451333596 0.3709769948291679
102.65 -0.7235808494509501 -0.08240005099542103
103.0 -0.14501254445596268 0.9157487442792511
103.35 -0.9086096568891902 0.7632639064670794
103.7 0.6644499250945981 -0.9462704650411258
104.05 0.03570068451831987 -0.9572206664143006
104.4 0.023612120284233873 0.8179757049380292
104.75 0.6119932228576661 -0.6573510677752743
105.1 0.3147072318246913 -0.924087354879203
105.45 -0.16790234861673037 0.47183501590119925
105.8 -0.3791785802496912 0.7372702674904805
106.15 -0.4099181982345095 -0.04508370033146836
106.5 0.710581135702367 -0.997376970658737
106.85 0.883432509713131 0.2769634969977486
107.2 0.6882916542257185 0.52510464998733
107.55 0.6384674860313204 0.5997332264004178
107.9 -0.9826202591588145 -0.8879475965300472
108.25 -0.6514022592298045 0.3767850077126238
108.6 0.6629160052890699 0.8936073707623571
108.95 0.7017438805025724 -0.4865641258486586
109.3 0.4885831365066897 0.050118824516308225
109.65 -0.868217912658386 0.8589548046877717
110.0 0.8093475176439586 -0.5274946545475567
