!Created with skrf (http://scikit-rf.org).
# GHz S RI R 50.0 
!freq ReS11 ImS11
75.0 -6.510703414881407 1.0673912422226763
75.35 -2.510715036164177 6.363090156175426
75.7 5.993910879673992 -2.472126987003165
76.05 -6.995665932712784 -5.412228662811458
76.4 -1.8317614317212971 -2.8792672250243054
76.75 2.70634759700401 1.7626003927102705
77.1 3.6057458690947346 2.5589834298738943
77.45 -3.2493102225327686 -4.518666240505322
77.8 -4.214453250273266 -4.171043901231288
78.15 7.735584305067329 7.589493555674139
78.5 -3.623947398178366 -7.632374823735853
78.85 4.225200139693486 2.4715569294519426
79.2 3.1767243339895863 -2.7729231768634683
79.55 4.912069896489545 2.6122258836761
79.9 -4.709637124628946 4.015171535590264
80.25 3.8340350360390207 -6.755425786113124
80.6 -3.0981006114031455 -5.714695214220249
80.95 2.6073938028143466 7.4644812257315785
81.3 -4.005466129341457 -0.39782175126295094
81.65 -3.9734960803073793 3.5738238944678447
82.0 -4.941244362144117 -3.817145761869414
82.35 -5.1388175379783085 7.711261194027475
82.7 -0.2611970836637596 6.439103498203375
83.05 5.811270723178271 -2.5326635884349855
83.4 -4.7175754285982325 -0.7916150050556574
83.75 -1.6170477966696826 -5.302919179277138
84.1 -1.3789966656196437 5.589058924039488
84.45 -6.197915725061394 4.348328671483225
84.8 6.292174367764558 -6.197661383666
85.15 -1.8533452404671582 -1.9812284343136977
85.5 -4.556486681701026 -6.495081654826354
85.85 7.788273862358139 1.3829033721350044
86.2 -6.0468550999773925 -0.4720020076787339
86.55 -5.291029638115887 -1.1147375710550609
86.9 -6.860046837876961 7.666945872174457
87.25 4.102188529005623 5.902540149822933
87.6 3.741010319483671 -6.900762323255821
87.95 -0.07396455809934466 2.2520370769409404
88.3 -1.4775309120177926 1.4480766036698292
88.65 -7.042796351771571 3.5214875251830318
89.0 -4.351697261642773 6.267618659797133
89.35 -7.254360962872751 6.838356132693804
89.7 -4.094167161126892 6.891278339578088
90.05 -4.1944461577371595 4.513054201530814
90.4 -5.366328053620775 -5.4718348630416
90.75 -1.8530275495997923 -4.115645471019537
91.1 3.766920669298772 7.862358591238156
91.45 -1.22368762624766 3.067601655060667
91.8 0.05874095787750733 2.721596644698918
92.15 7.289070614159089 -1.3302426518827133
92.5 3.5583318368529664 0.22147011428051222
92.85 5.537266474056928 2.8279530980168186
93.2 -0.9779226611943255 7.648191811440599
93.55 7.0680616041186966 -3.211007462975232
93.9 -5.739357953908131 -5.634394792267138
94.25 1.5128421747927465 1.5604971166509145
94.6 4.473242251602802 7.902570248460686
94.95 -7.91559349274185 -1.751723812679293
95.3 -2.861958998868447 3.489839666731017
95.65 -2.8123913962165883 -1.6933993712542463
96.0 7.716873904521156 -2.7391633970562292
96.35 1.525614109621742 6.9709319288328455
96.7 6.0291967203289385 2.1488960699713395
97.05 5.581769850026605 6.745145795260205
97.4 2.906641226090313 3.475042156567964
97.75 0.41776609011639465 -0.22420332285127742
98.1 -6.771900075468105 -6.819797962826376
98.45 -5.2081393919197865 -7.276853694572161
98.8 -1.774915813201929 -5.692939682907989
99.15 -6.360442204475852 -2.9090042551800916
99.5 4.05773575181882 2.038681192647349
99.85 -1.692867932503912 -5.493994089204961
100.2 5.406474631966747 -7.795379850210885
100.55 -4.796735857709066 3.3402412589687813
100.9 -3.5051418286154252 -5.507723509621224
101.25 -2.3687108432868182 -0.21445195878880163
101.6 -7.693778891923605 -0.8624913828918821
101.95 -1.8602379233320967 6.878009554994396
102.3 -6.2545747104470895 3.4504632890358664
102.65 4.4486828276483 -7.732910294754046
103.0 0.03567858524234957 -2.4230182091108077
103.35 6.675978908426988 -7.232590112080805
103.7 -1.5703669846353492 1.706891875724029
104.05 -6.331675817968174 -0.08998150151048279
104.4 5.39780555196619 4.650908786393826
104.75 -0.9868270645599377 5.847976598819697
105.1 1.862252482679155 -0.23264601078528813
105.45 -1.1663780611232308 0.23442518574312565
105.8 -2.9846597400596515 -3.642551707559674
106.15 3.653087223932719 -1.5028210578532555
106.5 2.674943720062341 4.615274321748176
106.85 -3.3532505097389045 3.9290761369660867
107.2 -1.8452526190955343 0.2370621751619968
107.55 0.6737045787318365 3.1656454495247317
107.9 5.559325666539879 -2.855768664743696
108.25 1.3602056231198194 2.143066629133596
108.6 3.6721427114268277 -7.663091965439076
108.95 -6.950150818664412 -2.6153828924676183
109.3 -5.341675576020199 0.17656348108946496
109.65 2.321230905426839 -1.700789632203353
110.0 3.6252285384743406 6.549753178822252
