!Created with skrf (http://scikit-rf.org).
# GHz S RI R 50.0 
!freq ReS11 ImS11
75.0 -0.3503295129059625 -0.4109920659850146
75.35 -0.8105267866071406 0.8317805741993394
75.7 0.6057550064878598 -1.526502400032964
76.05 0.6340995131726967 -1.6523512073865434
76.4 1.3512386366314564 -0.12993590549264677
76.75 0.5050455702331043 0.9066995271811709
77.1 -0.8800441887475436 -0.5475079286677866
77.45 -1.1719184275433467 1.3911802240794273
77.8 -1.3894173684186462 -0.022985969524791372
78.15 -0.14312310669358475 -1.316278109035709
78.5 1.2671485453997784 1.1126861161021826
78.85 0.9011732176775462 1.794550527592544
79.2 0.6844923471953668 0.43038612269495147
79.55 -0.46230292857429633 -1.5889002562837184
79.9 1.636860860380414 -0.09782971306078192
80.25 0.7711202810336455 0.5907220423449102
80.6 -1.239236581001336 1.6636399396834824
80.95 -1.958359749312863 -0.9342695719999075
81.3 0.3547900137256712 1.2933001107305162
81.65 -0.6675107452236402 0.005029551487166994
82.0 -1.444188961760311 -1.6191951250308554
82.35 1.837314020305171 0.7855173157783568
82.7 1.088423409369788 -0.05961150222443967
83.05 -1.6698060713752594 -0.3456287388406514
83.4 -0.6251621191707417 1.1948486195100494
83.75 -1.8574885786475432 0.3987092049076484
84.1 -0.1579591184742255 1.1024523133760984
84.45 1.2598197365145514 1.3839905300309847
84.8 1.668249883704318 -0.23930242845227667
85.15 -0.374275069146186 1.889940579816317
85.5 -1.1431578256849488 0.1907186416492137
85.85 1.1044733261375912 -0.9564119989960469
86.2 -1.4294175188616505 -1.5108582377958295
86.55 -0.17371787417209372 -0.2542983326268269
86.9 0.8140645109834272 0.5948326118656095
87.25 -1.839348146525547 0.10186103537242808
87.6 -1.2162129047680073 1.4045998135257611
87.95 1.4204191195828941 0.11833600923990462
88.3 0.047508525350208775 1.9691277143928194
88.65 -1.4042936436982036 -1.1248036393290746
89.0 0.8915965989445023 1.7956887639389234
89.35 -1.7376279748872374 0.04146158337048966
89.7 -1.8526397817798959 -0.003334413275405179
90.05 1.530044133275168 1.4467066659229566
90.4 -1.0289263622583515 -0.4195582293976847
90.75 -0.3575763836905783 1.0583605447242572
91.1 -1.9707161740165624 -0.5656130427286117
91.45 1.0737700231629153 1.0073199890341984
91.8 -1.6284091260158866 1.5836717746664752
92.15 0.955464978744835 -0.5960080465689752
92.5 0.41320228041661755 -1.1818667822425954
92.85 -0.46875192575875424 0.6375785842900896
93.2 -1.1271997237217488 -1.338958677582589
93.55 1.4201592769018507 -1.0439397073853711
93.9 1.176497698729977 -1.7881979782000021
94.25 -1.8111354480144763 1.3256978518472584
94.6 -0.228740852876832 -1.513698958330843
94.95 -0.44581786180966 0.585955860404674
95.3 0.07362495029532212 -1.7707171192140718
95.65 -1.5635390103280264 0.30166035080704656
96.0 1.1776055287563851 1.8115551024901229
96.35 1.8667319488276175 -0.07108486359467125
96.7 0.6506679299446487 -1.5993510008157705
97.05 0.21286389955236462 -1.8628569663349799
97.4 -1.3320580167807883 0.8760127375449569
97.75 0.5936234464596346 0.6450887221289756
98.1 -1.4842764539825395 -0.6485892810233396
98.45 -0.17238383501899657 0.040185775940668744
98.8 1.9171959017487183 -0.9926139155888181
99.15 -1.5090571305424931 -1.0872188229275817
99.5 -0.1167424342390766 0.43663375123018255
99.85 0.29828037318562695 0.6947644203680272
100.2 0.7078610103714786 -0.24236562530168815
100.55 -0.21131405118902746 -1.201120347242576
100.9 1.2587021866508064 -0.5661197732662204
101.25 0.6127960784339437 -0.9514450308264992
101.6 -0.13887760580463704 0.09931428742074644
101.95 0.32678997305802815 0.4823535563229444
102.3 -1.8719724561493596 -1.5292878631035691
102.65 1.7006988007979906 -0.751194426069171
103.0 -1.969564809065111 1.942338069327485
103.35 0.9856681892164945 1.5449154278347703
103.7 -1.0353288087669754 -1.9275887293277938
104.05 1.7533140155024722 -0.3276979644322324
104.4 0.4669178016415998 -1.5805370288751641
104.75 -1.0225511278565689 -1.278267397056024
105.1 -0.7596766120760137 0.6074365791131839
105.45 -1.3955388811124818 0.48993529993110796
105.8 -0.36157647898598944 -0.2995358378634121
106.15 0.02868179151037875 -1.345570049498321
106.5 0.3824927610578128 -1.6601729600347346
106.85 0.03554211360760107 0.10144749111395601
107.2 0.1767655792085896 -0.038213931127520695
107.55 -0.3481308995773258 1.6087331627159056
107.9 -1.1317049609722751 1.7756353860601646
108.25 -0.8300413987779054 -0.09644810837481987
108.6 -1.6291226994845145 -1.2136093482697738
108.95 -0.9573133818450499 0.8846017582647283
109.3 0.2675310942783975 -1.7857313547813707
109.65 -1.7505667696398461 0.9541535919073612
110.0 -0.8284416738584555 0.7268405991607443
