!Created with skrf (http://scikit-rf.org).
# GHz S RI R 50.0 
!freq ReS11 ImS11
75.0 -2.7947693967215703 3.4819226976157323
75.35 -0.7648411224226692 -1.7248393862060107
75.7 0.5695471802416108 -2.720485545060969
76.05 0.9437404837259955 -3.745476558913184
76.4 -2.5457656878066404 2.54473274765018
76.75 -0.9378876284861792 -1.192387380369263
77.1 1.7451914458909434 -2.0648760776713004
77.45 1.7831719953505865 -4.347830769311364
77.8 -3.9856018067387122 2.1473959836977077
78.15 2.6571500866620035 3.0641841205422784
78.5 0.40358208770107096 -0.7271448921316692
78.85 1.5437175584725948 -1.8904614357708738
79.2 0.6492410539512705 -3.7509273581263614
79.55 -0.09686236299544126 3.1173946441309006
79.9 -4.022517769065585 -3.3286372486019
80.25 -2.9267503601493203 0.8803149246956099
80.6 -3.1344348910493327 3.002600955453328
80.95 -0.5861224596723269 3.561503744483793
81.3 -2.3466666041047555 -3.9336589457282467
81.65 1.533627757559508 0.12459274630284622
82.0 2.523153533004395 -2.5766594059769488
82.35 -3.4908181518766734 2.968385545100498
82.7 0.6634503875222186 1.410663009663392
83.05 2.7598952163826396 2.4043421938634078
83.4 -2.0047778405663905 -4.828709115489303
83.75 2.0784542923481117 3.5390526770703334
84.1 -2.31801972629151 3.3100810518759296
84.45 -2.2486184707031254 -0.44206435366895946
84.8 -2.8584014697007563 -4.322132478076273
85.15 -4.113662574177419 1.779849088984824
85.5 -3.2403066668515335 -2.8632868265257483
85.85 0.801576588685684 -0.2845592157131238
86.2 -1.2300293899757908 -1.6883128327469143
86.55 3.145200602368494 3.4260437451616346
86.9 2.774279025130728 -4.697945196831154
87.25 -0.3296627800196994 0.19475197174639636
87.6 4.900014398297177 3.529894970912164
87.95 -0.283315281473957 3.485335222773757
88.3 -3.243781897095018 -4.124079467596972
88.65 1.8163108780442594 -2.867800960379263
89.0 -1.0089148488336852 0.02223813208677039
89.35 3.6764788319312034 0.3077376576084667
89.7 2.3791886654737127 -4.496496801829907
90.05 -3.336345478345991 2.701438264343964
90.4 1.8776790613611338 0.6721841899114966
90.75 -2.1953447253850786 -0.891710380788221
91.1 -0.9458873754268471 -4.608849406703674
91.45 -3.548577943434461 0.09365809231679068
91.8 0.274578239321005 -1.3784103276635362
92.15 1.6105771914226907 -2.1707338758950634
92.5 1.649010233039886 -4.484012524905018
92.85 0.44574108020453473 -3.830936467839935
93.2 -2.0263636002846153 0.5169875219062925
93.55 -2.154761191455068 -1.1361746808548334
93.9 -4.8002529033236865 -2.231623813807567
94.25 -0.20003166717285858 2.183867889899859
94.6 4.587310897289899 -3.1677190750135775
94.95 0.4323173690138604 1.9102166870540482
95.3 -1.258707177149787 4.751801226342907
95.65 -1.267908176816418 -2.508193913897252
96.0 3.567963203037806 4.7336165726836565
96.35 0.8068073380684404 -4.054168209571145
96.7 -3.038200659608022 1.6785239309219324
97.05 -1.947042282422975 2.7180527872110103
97.4 1.427142662745704 3.645216919123948
97.75 1.3252022257984541 3.3241071366401775
98.1 -0.654502997992179 3.4654732219777937
98.45 -3.7866068146619156 -3.5505992956010535
98.8 4.506138485655097 2.6280650967195287
99.15 3.8913847232849017 -0.17401278512019447
99.5 -2.656590180423939 -2.312395755045198
99.85 -2.702501661863433 -3.665103899023782
100.2 -2.678960139751645 0.44985692961150625
100.55 -3.595981847552153 -1.3920240300428899
100.9 0.6503528310185402 0.35624982980879905
101.25 -2.0548780946174805 4.189343751881812
101.6 -2.8076015887287262 2.786593561837325
101.95 -1.6482098621274055 -4.878386076620861
102.3 -2.9140017921243153 0.12463036263895888
102.65 0.11830991410780367 -4.669673085004757
103.0 0.8525423382179997 -1.9507596738023003
103.35 2.4919963468652684 -2.3134805390076663
103.7 2.90023312106634 -3.706385766133833
104.05 2.402173958387829 -0.20343919654398857
104.4 -1.4838896777041977 1.2553707075333997
104.75 1.9759714394867 4.480749725660026
105.1 -1.7751493210256364 -2.7808918582894715
105.45 -2.389736229640426 0.8507124746639516
105.8 3.453038402746139 -2.401732462284113
106.15 -3.7896323798125877 -3.9236521201436645
106.5 3.187537111020035 -1.784817858046811
106.85 -2.051119341614187 -3.51252157382286
107.2 -4.689036650474908 -1.356107641651677
107.55 1.6326838707251567 1.541250421451743
107.9 -2.9473328639533705 -3.414910171009098
108.25 -0.09792825314163034 -3.963957422570795
108.6 3.5323230069189346 2.27327593706804
108.95 3.1659714234728185 2.1518851755807313
109.3 -2.989759052889114 -1.0851141207495907
109.65 -2.732577683358243 -0.6130088151405322
110.0 0.48945955453838064 -3.8673152897399863
